CITIFILE A.01.01
#Momentum: B.09.20.456 (*) 372.600 Nov 12 2011 
#Momentum Date and Time: Mon Apr 25 20:36:59 2016

NAME Momentum.SP

#  mode: MW    project: proj    reference: S_50

CONSTANT NBR_OF_PORTS 2

CONSTANT NORMALIZATION 1

VAR freq MAG 15

DATA S[1,1] RI
DATA S[1,2] RI
DATA S[2,1] RI
DATA S[2,2] RI
DATA S_50[1,1] RI
DATA S_50[1,2] RI
DATA S_50[2,1] RI
DATA S_50[2,2] RI
DATA S_Z0[1,1] RI
DATA S_Z0[1,2] RI
DATA S_Z0[2,1] RI
DATA S_Z0[2,2] RI
DATA Z0[1] RI
DATA Z0[2] RI
DATA PORTZ[1] RI
DATA PORTZ[2] RI

VAR_LIST_BEGIN
	 0
	 69444444.47
	 416666666.8
	 833333333.5
	 1111111111
	 1388888889
	 1666666667
	 2083333333
	 2500000000
	 2777777778
	 3333333333
	 3750000000
	 4166666667
	 4583333334
	 5000000000
VAR_LIST_END

BEGIN
	 0.000930464567,	 0
	 0.00230417259,	 0.00285400311
	 0.00473465986,	-0.000121273233
	-0.00877443676,	 0.00617840413
	-0.00861911043,	 0.0244705814
	 0.00612741928,	 0.0573739738
	 0.103392968,	 0.0993874572
	 0.315182959,	-0.296917938
	-0.54908648,	-0.515507505
	-0.845720063,	 0.151429774
	 0.0740898232,	 0.922206624
	 0.776898164,	 0.518355841
	 0.910482897,	-0.205773326
	 0.519991526,	-0.771666423
	-0.116660512,	-0.920790088
END
BEGIN
	 0.99906953543299304 ,	 -0 
	 0.971130424,	-0.218930518
	 0.242109515,	-0.952304747
	-0.855691414,	-0.45564931
	-0.879408108,	 0.386107251
	-0.216398213,	 0.924645317
	 0.626450554,	 0.686161596
	 0.594072588,	-0.549263605
	-0.354445052,	-0.373057766
	-0.333623087,	 0.0312197935
	-0.0033619079,	 0.14591426
	 0.0675304117,	 0.055317309
	 0.0571182037,	-0.00774806071
	 0.0259028287,	-0.0326819492
	-0.00191465205,	-0.032850771
END
BEGIN
	 0.99906953543299304 ,	 -0 
	 0.971130424,	-0.218930518
	 0.242109515,	-0.952304747
	-0.855691414,	-0.45564931
	-0.879408108,	 0.386107251
	-0.216398213,	 0.924645317
	 0.626450554,	 0.686161596
	 0.594072588,	-0.549263605
	-0.354445052,	-0.373057766
	-0.333623087,	 0.0312197935
	-0.0033619079,	 0.14591426
	 0.0675304117,	 0.055317309
	 0.0571182037,	-0.00774806071
	 0.0259028287,	-0.0326819492
	-0.00191465205,	-0.032850771
END
BEGIN
	 0.000930464567,	 0
	 0.00224285024,	 0.00287347058
	 0.00433369155,	 0.00176701572
	-0.000706703407,	 0.0099978398
	 0.0182674388,	 0.0106306599
	 0.0225237763,	-0.0416714776
	-0.0986458486,	-0.0949164143
	-0.289372993,	 0.335141524
	 0.557433298,	 0.522913546
	 0.855890831,	-0.101713965
	 0.0293738913,	-0.916219796
	-0.70639456,	-0.599879701
	-0.926297974,	 0.103549779
	-0.603850131,	 0.713729343
	 0.0126911148,	 0.934840824
END
BEGIN
	 0.000930464567,	 0
	 0.00230417259,	 0.00285400311
	 0.00473465986,	-0.000121273233
	-0.00877443676,	 0.00617840413
	-0.00861911043,	 0.0244705814
	 0.00612741928,	 0.0573739738
	 0.103392968,	 0.0993874572
	 0.315182959,	-0.296917938
	-0.54908648,	-0.515507505
	-0.845720063,	 0.151429774
	 0.0740898232,	 0.922206624
	 0.776898164,	 0.518355841
	 0.910482897,	-0.205773326
	 0.519991526,	-0.771666423
	-0.116660512,	-0.920790088
END
BEGIN
	 0.99906953543299304 ,	 -0 
	 0.971130424,	-0.218930518
	 0.242109515,	-0.952304747
	-0.855691414,	-0.45564931
	-0.879408108,	 0.386107251
	-0.216398213,	 0.924645317
	 0.626450554,	 0.686161596
	 0.594072588,	-0.549263605
	-0.354445052,	-0.373057766
	-0.333623087,	 0.0312197935
	-0.0033619079,	 0.14591426
	 0.0675304117,	 0.055317309
	 0.0571182037,	-0.00774806071
	 0.0259028287,	-0.0326819492
	-0.00191465205,	-0.032850771
END
BEGIN
	 0.99906953543299304 ,	 -0 
	 0.971130424,	-0.218930518
	 0.242109515,	-0.952304747
	-0.855691414,	-0.45564931
	-0.879408108,	 0.386107251
	-0.216398213,	 0.924645317
	 0.626450554,	 0.686161596
	 0.594072588,	-0.549263605
	-0.354445052,	-0.373057766
	-0.333623087,	 0.0312197935
	-0.0033619079,	 0.14591426
	 0.0675304117,	 0.055317309
	 0.0571182037,	-0.00774806071
	 0.0259028287,	-0.0326819492
	-0.00191465205,	-0.032850771
END
BEGIN
	 0.000930464567,	 0
	 0.00224285024,	 0.00287347058
	 0.00433369155,	 0.00176701572
	-0.000706703407,	 0.0099978398
	 0.0182674388,	 0.0106306599
	 0.0225237763,	-0.0416714776
	-0.0986458486,	-0.0949164143
	-0.289372993,	 0.335141524
	 0.557433298,	 0.522913546
	 0.855890831,	-0.101713965
	 0.0293738913,	-0.916219796
	-0.70639456,	-0.599879701
	-0.926297974,	 0.103549779
	-0.603850131,	 0.713729343
	 0.0126911148,	 0.934840824
END
BEGIN
	 0.000930464567,	 0
	 0.00230417259,	 0.00285400311
	 0.00473465986,	-0.000121273233
	-0.00877443676,	 0.00617840413
	-0.00861911043,	 0.0244705814
	 0.00612741928,	 0.0573739738
	 0.103392968,	 0.0993874572
	 0.315182959,	-0.296917938
	-0.54908648,	-0.515507505
	-0.845720063,	 0.151429774
	 0.0740898232,	 0.922206624
	 0.776898164,	 0.518355841
	 0.910482897,	-0.205773326
	 0.519991526,	-0.771666423
	-0.116660512,	-0.920790088
END
BEGIN
	 0.99906953543299304 ,	 -0 
	 0.971130424,	-0.218930518
	 0.242109515,	-0.952304747
	-0.855691414,	-0.45564931
	-0.879408108,	 0.386107251
	-0.216398213,	 0.924645317
	 0.626450554,	 0.686161596
	 0.594072588,	-0.549263605
	-0.354445052,	-0.373057766
	-0.333623087,	 0.0312197935
	-0.0033619079,	 0.14591426
	 0.0675304117,	 0.055317309
	 0.0571182037,	-0.00774806071
	 0.0259028287,	-0.0326819492
	-0.00191465205,	-0.032850771
END
BEGIN
	 0.99906953543299304 ,	 -0 
	 0.971130424,	-0.218930518
	 0.242109515,	-0.952304747
	-0.855691414,	-0.45564931
	-0.879408108,	 0.386107251
	-0.216398213,	 0.924645317
	 0.626450554,	 0.686161596
	 0.594072588,	-0.549263605
	-0.354445052,	-0.373057766
	-0.333623087,	 0.0312197935
	-0.0033619079,	 0.14591426
	 0.0675304117,	 0.055317309
	 0.0571182037,	-0.00774806071
	 0.0259028287,	-0.0326819492
	-0.00191465205,	-0.032850771
END
BEGIN
	 0.000930464567,	 0
	 0.00224285024,	 0.00287347058
	 0.00433369155,	 0.00176701572
	-0.000706703407,	 0.0099978398
	 0.0182674388,	 0.0106306599
	 0.0225237763,	-0.0416714776
	-0.0986458486,	-0.0949164143
	-0.289372993,	 0.335141524
	 0.557433298,	 0.522913546
	 0.855890831,	-0.101713965
	 0.0293738913,	-0.916219796
	-0.70639456,	-0.599879701
	-0.926297974,	 0.103549779
	-0.603850131,	 0.713729343
	 0.0126911148,	 0.934840824
END
BEGIN
	 50 ,	 0 
	 50 ,	 0 
	 50 ,	 0 
	 50 ,	 0 
	 50 ,	 0 
	 50 ,	 0 
	 50 ,	 0 
	 50 ,	 0 
	 50 ,	 0 
	 50 ,	 0 
	 50 ,	 0 
	 50 ,	 0 
	 50 ,	 0 
	 50 ,	 0 
	 50 ,	 0 
END
BEGIN
	 50 ,	 0 
	 50 ,	 0 
	 50 ,	 0 
	 50 ,	 0 
	 50 ,	 0 
	 50 ,	 0 
	 50 ,	 0 
	 50 ,	 0 
	 50 ,	 0 
	 50 ,	 0 
	 50 ,	 0 
	 50 ,	 0 
	 50 ,	 0 
	 50 ,	 0 
	 50 ,	 0 
END
BEGIN
	 50 ,	 0 
	 50 ,	 0 
	 50 ,	 0 
	 50 ,	 0 
	 50 ,	 0 
	 50 ,	 0 
	 50 ,	 0 
	 50 ,	 0 
	 50 ,	 0 
	 50 ,	 0 
	 50 ,	 0 
	 50 ,	 0 
	 50 ,	 0 
	 50 ,	 0 
	 50 ,	 0 
END
BEGIN
	 50 ,	 0 
	 50 ,	 0 
	 50 ,	 0 
	 50 ,	 0 
	 50 ,	 0 
	 50 ,	 0 
	 50 ,	 0 
	 50 ,	 0 
	 50 ,	 0 
	 50 ,	 0 
	 50 ,	 0 
	 50 ,	 0 
	 50 ,	 0 
	 50 ,	 0 
	 50 ,	 0 
END
